Z60W Data File: Version 1.1







0,2,0,1,0.1,100000
78
1115.5999999999997,0,0,0,10737.388089173479,-9077.009255392191,0,0,0
1396.8000000000002,0,0,0,9772.630720526184,-7668.231399757565,0,0,0
1748.8999999999996,0,0,0,9057.700066135694,-6436.972387071847,0,0,0
2189.7,0,0,0,8529.351232855654,-5377.45818640961,0,0,0
2741.6999999999985,0,0,0,8128.434226526386,-4490.839484443237,0,0,0
3432.7000000000003,0,0,0,7819.810574884581,-3751.661073834268,0,0,0
4298.000000000002,0,0,0,7584.319190462085,-3124.4823102697433,0,0,0
5381.300000000001,0,0,0,7386.508571439032,-2612.798523433776,0,0,0
6737.700000000001,0,0,0,7222.217095641841,-2186.0187243980167,0,0,0
8436.000000000004,0,0,0,7081.15771415029,-1829.9934063623925,0,0,0
10561.999999999989,0,0,0,6960.176200421209,-1526.4739169373968,0,0,0
13225.000000000007,0,0,0,6856.579969227439,-1263.3665840084016,0,0,0
16558.000000000015,0,0,0,6766.4383539828,-1035.4105667562649,0,0,0
20732.000000000015,0,0,0,6691.928209872303,-829.965706469414,0,0,0
25957.000000000007,0,0,0,6630.58348470312,-643.1248264390257,0,0,0
32500.000000000004,0,0,0,6587.4087172534055,-466.41355239083157,0,0,0
40692.00000000002,0,0,0,6555.140572495704,-299.9601220507332,0,0,0
50948.00000000003,0,0,0,6556.532755574107,-133.90532134239191,0,0,0
63790.000000000044,0,0,0,6576.247013962179,-26.398889247846952,0,0,0
79868.99999999993,0,0,0,6634.171672309962,-179.5154097008309,0,0,0
100000.0,0,0,0,6730.440197812894,-323.2862256025197,0,0,0
79868.99999999993,0,0,0,6632.777263126821,-182.9531845798005,0,0,0
63790.000000000044,0,0,0,6574.851531595974,-25.245741622528264,0,0,0
50948.00000000003,0,0,0,6554.325088625422,-129.2826075516535,0,0,0
40692.00000000002,0,0,0,6556.703414131436,-287.4184042770563,0,0,0
32500.000000000004,0,0,0,6581.48930829311,-457.9140146615733,0,0,0
25957.000000000007,0,0,0,6626.309481109076,-632.2053626504315,0,0,0
20732.000000000015,0,0,0,6685.611325466167,-814.9682293184997,0,0,0
16558.000000000015,0,0,0,6758.425342210952,-1014.8775954570913,0,0,0
13225.000000000007,0,0,0,6846.679128725139,-1236.8472655423436,0,0,0
10561.999999999989,0,0,0,6947.1184512441,-1491.8697913637689,0,0,0
8436.000000000004,0,0,0,7065.165714850952,-1785.137883104448,0,0,0
6737.700000000001,0,0,0,7202.703046522685,-2128.069330076637,0,0,0
5381.300000000001,0,0,0,7363.256022056206,-2536.8099561561585,0,0,0
4298.000000000002,0,0,0,7556.726131675444,-3025.5350239013055,0,0,0
3432.7000000000003,0,0,0,7787.349103214439,-3621.3772497028367,0,0,0
2741.6999999999985,0,0,0,8089.584261748712,-4321.250332029785,0,0,0
2189.7,0,0,0,8482.600060598177,-5155.474097688766,0,0,0
1748.8999999999996,0,0,0,9002.819213414834,-6141.306881321653,0,0,0
1396.8000000000002,0,0,0,9702.245689421325,-7282.0045030269885,0,0,0
1115.5999999999997,0,0,0,10644.389485366197,-8567.48904194371,0,0,0
891.0400000000004,0,0,0,11890.399677483465,-9966.625332062056,0,0,0
711.6599999999997,0,0,0,13521.363738599986,-11394.1145618461,0,0,0
568.3900000000002,0,0,0,15567.919944669615,-12733.122656927406,0,0,0
453.9699999999999,0,0,0,18026.67164231869,-13817.36148836033,0,0,0
362.57999999999987,0,0,0,20772.21723618104,-14534.059828310305,0,0,0
289.5899999999999,0,0,0,23641.656390099146,-14807.393394263696,0,0,0
231.29,0,0,0,26482.411306239992,-14588.938152145698,0,0,0
184.72999999999996,0,0,0,29074.093945522192,-13948.694212970257,0,0,0
147.53999999999994,0,0,0,31354.611450123222,-13070.931137902982,0,0,0
117.84000000000002,0,0,0,33294.16534236181,-12039.176473308857,0,0,0
94.11499999999998,0,0,0,34857.38942744172,-10997.181607288043,0,0,0
75.168,0,0,0,36119.439834172576,-9969.301182409283,0,0,0
59.72,0,0,0,36630.00100388185,-8712.986310996619,0,0,0
47.291999999999994,0,0,0,37152.07576498597,-7741.173448046612,0,0,0
37.327000000000005,0,0,0,37398.411286774506,-6830.162679267401,0,0,0
29.363999999999997,0,0,0,37484.69879024962,-5943.699656296471,0,0,0
23.024,0,0,0,37386.27831833037,-5227.68529124893,0,0,0
17.994000000000003,0,0,0,36912.04796641224,-4388.427842095865,0,0,0
14.016000000000002,0,0,0,36310.29126891743,-3745.8986860803366,0,0,0
10.882999999999997,0,0,0,35513.929103925235,-3213.272568795248,0,0,0
8.423,0,0,0,34290.324548195225,-2855.332446395689,0,0,0
6.4987,0,0,0,33354.945928802554,-2116.0496418226817,0,0,0
4.9988,0,0,0,31830.198201022034,-1935.6661601768085,0,0,0
3.8337000000000003,0,0,0,30994.45315861038,-1770.846802720956,0,0,0
2.9318,0,0,0,29991.922686627706,-1430.1222183248015,0,0,0
2.2359,0,0,0,29019.57379438152,-1190.9125880791405,0,0,0
1.7008,0,0,0,28299.72853376859,-1265.2861000595262,0,0,0
1.2907,0,0,0,28265.51157052933,-1313.1914012331067,0,0,0
0.97721,0,0,0,28522.41817848914,-1404.9591636030516,0,0,0
0.73838,0,0,0,29137.024179928558,-1583.1051570437246,0,0,0
0.55689,0,0,0,30129.497473451214,-1779.4678972369768,0,0,0
0.41935,0,0,0,32962.9319221702,-3063.6814609832754,0,0,0
0.31534,0,0,0,35217.970303298185,-2982.0972009656025,0,0,0
0.23687000000000002,0,0,0,41493.04123330391,-1550.4880558525513,0,0,0
0.17777999999999997,0,0,0,48926.414745740585,-802.7634320136481,0,0,0
0.13335,0,0,0,40574.46261572262,-5420.996997354577,0,0,0
0.1,0,0,0,42966.32000783563,-2394.6678233657444,0,0,0
