Z60W Data File: Version 1.1







0,2,0,1,0.1,100000
78
1115.5999999999997,0,0,0,11650491.478398489,-6134813.551507837,0,0,0
1396.8000000000002,0,0,0,10924292.861725891,-6386199.297801842,0,0,0
1748.8999999999996,0,0,0,9835583.906472387,-6802864.853776046,0,0,0
2189.7,0,0,0,8760196.832031216,-6938268.981818899,0,0,0
2741.6999999999985,0,0,0,7388069.041674366,-6981666.05012391,0,0,0
3432.7000000000003,0,0,0,6013832.1620167745,-6702525.473811543,0,0,0
4298.000000000002,0,0,0,4802775.610780967,-6136227.319981514,0,0,0
5381.300000000001,0,0,0,3790826.0511495406,-5532218.254003178,0,0,0
6737.700000000001,0,0,0,2939060.396461052,-4816844.119955949,0,0,0
8436.000000000004,0,0,0,2316512.124350854,-4146609.653407889,0,0,0
10561.999999999989,0,0,0,1845939.5626084432,-3521968.780553988,0,0,0
13225.000000000007,0,0,0,1510816.6579097381,-2966424.4514537104,0,0,0
16558.000000000015,0,0,0,1248759.667162236,-2480724.608590978,0,0,0
20732.000000000015,0,0,0,1066601.415907336,-2078057.520759343,0,0,0
25957.000000000007,0,0,0,936888.949225679,-1743635.1272037402,0,0,0
32500.000000000004,0,0,0,791871.7380346651,-1347556.362643863,0,0,0
40692.00000000002,0,0,0,756952.1325635763,-1106328.937977966,0,0,0
50948.00000000003,0,0,0,706779.8755158745,-1090844.7403575657,0,0,0
63790.000000000044,0,0,0,709936.6204922771,-1056895.5647953134,0,0,0
79868.99999999993,0,0,0,720700.5914961125,-1327365.3669646324,0,0,0
100000.0,0,0,0,746472.4295022305,-1212899.234064,0,0,0
79868.99999999993,0,0,0,1051517.260897821,-1076025.8826041052,0,0,0
63790.000000000044,0,0,0,771139.3220906775,-1006058.5996479184,0,0,0
50948.00000000003,0,0,0,732424.0272314305,-1080566.6126315827,0,0,0
40692.00000000002,0,0,0,662262.7986542162,-1106560.5024212121,0,0,0
32500.000000000004,0,0,0,835717.6710482355,-1547563.702823801,0,0,0
25957.000000000007,0,0,0,937010.4625423434,-1744591.4946159127,0,0,0
20732.000000000015,0,0,0,1063964.7697759091,-2076487.7097338422,0,0,0
16558.000000000015,0,0,0,1247238.0426685663,-2484175.7898587375,0,0,0
13225.000000000007,0,0,0,1506195.3189604026,-2966306.4408691446,0,0,0
10561.999999999989,0,0,0,1846750.769488812,-3520527.2112841965,0,0,0
8436.000000000004,0,0,0,2312009.0916603887,-4169258.5336099877,0,0,0
6737.700000000001,0,0,0,2949852.3335549748,-4832633.904013449,0,0,0
5381.300000000001,0,0,0,3795935.365594794,-5529320.239435108,0,0,0
4298.000000000002,0,0,0,4889629.209616666,-6160336.938225335,0,0,0
3432.7000000000003,0,0,0,5987470.311866449,-6812995.910355288,0,0,0
2741.6999999999985,0,0,0,7399736.433210064,-6934247.018892795,0,0,0
2189.7,0,0,0,8758985.742230719,-6939797.818913673,0,0,0
1748.8999999999996,0,0,0,9933289.93765176,-6932136.756768888,0,0,0
1396.8000000000002,0,0,0,10798285.851420265,-6483135.635710309,0,0,0
1115.5999999999997,0,0,0,11711231.539879756,-6158967.4312603455,0,0,0
891.0400000000004,0,0,0,12284756.502156418,-5922820.416214355,0,0,0
711.6599999999997,0,0,0,12668511.573058793,-6061579.870238071,0,0,0
568.3900000000002,0,0,0,13020468.725752871,-6046662.729282277,0,0,0
453.9699999999999,0,0,0,13528202.506593695,-6051457.422852125,0,0,0
362.57999999999987,0,0,0,13238608.764415191,-7214926.678958652,0,0,0
289.5899999999999,0,0,0,13510164.779781608,-8140207.406641956,0,0,0
231.29,0,0,0,13476434.383413369,-9303713.898737105,0,0,0
184.72999999999996,0,0,0,13375538.365970334,-11904612.947108177,0,0,0
147.53999999999994,0,0,0,13943932.983545518,-14179545.195470532,0,0,0
117.84000000000002,0,0,0,13632395.58415054,-16673336.787734868,0,0,0
94.11499999999998,0,0,0,13242007.551005544,-21323917.01866972,0,0,0
75.168,0,0,0,14889156.577226767,-27884912.361684497,0,0,0
59.72,0,0,0,19196266.46256186,-37287840.8452182,0,0,0
47.291999999999994,0,0,0,23108684.77502166,-47170694.47197785,0,0,0
37.327000000000005,0,0,0,9241181.994928613,-47059221.405975334,0,0,0
29.363999999999997,0,0,0,17350431.099500805,-71718086.3496892,0,0,0
23.024,0,0,0,17301645.310900282,-82890574.8474204,0,0,0
17.994000000000003,0,0,0,15270978.878790652,-103539909.2335102,0,0,0
14.016000000000002,0,0,0,25135233.728044707,-132517298.58941649,0,0,0
10.882999999999997,0,0,0,37389295.98437229,-168235299.93967676,0,0,0
8.423,0,0,0,42687535.45003307,-218387098.33046955,0,0,0
6.4987,0,0,0,45509592.29829077,-283176363.96571547,0,0,0
4.9988,0,0,0,84884959.35292982,-356585818.808953,0,0,0
3.8337000000000003,0,0,0,131649584.14913103,-476975180.79388666,0,0,0
2.9318,0,0,0,181382528.8407251,-560901620.8136178,0,0,0
2.2359,0,0,0,279066471.0522637,-695953976.3047813,0,0,0
1.7008,0,0,0,417960768.6171518,-836470801.8197405,0,0,0
1.2907,0,0,0,580316563.3743392,-966573042.3891392,0,0,0
0.97721,0,0,0,841969952.1341407,-1088203753.7627008,0,0,0
0.73838,0,0,0,1054162234.7064168,-1191513656.2032235,0,0,0
0.55689,0,0,0,1318464656.566689,-1235092915.2838998,0,0,0
0.41935,0,0,0,1564877116.2157538,-1246097817.6468596,0,0,0
0.31534,0,0,0,1760145956.5976176,-1295322111.0878396,0,0,0
0.23687000000000002,0,0,0,2012233389.319355,-1265700054.08404,0,0,0
0.17777999999999997,0,0,0,2275666123.254848,-1401094377.7883954,0,0,0
0.13335,0,0,0,2385748202.4475513,-1476345784.1976852,0,0,0
0.1,0,0,0,2581583040.9925656,-1474300991.1342993,0,0,0
