Z60W Data File: Version 1.1







0,2,0,1,0.1,100000
78
1115.5999999999997,0,0,0,8797.228790208554,-7813.291343136116,0,0,0
1396.8000000000002,0,0,0,8446.055590109661,-6534.920502100798,0,0,0
1748.8999999999996,0,0,0,8146.653579439542,-5474.324019146557,0,0,0
2189.7,0,0,0,7893.1624838026,-4593.930266589948,0,0,0
2741.6999999999985,0,0,0,7670.917282932447,-3864.7817905294846,0,0,0
3432.7000000000003,0,0,0,7476.8843837641,-3258.8032085145223,0,0,0
4298.000000000002,0,0,0,7311.115629777707,-2745.1554597181057,0,0,0
5381.300000000001,0,0,0,7157.70178324003,-2322.916318381379,0,0,0
6737.700000000001,0,0,0,7019.976037868039,-1967.9392235936946,0,0,0
8436.000000000004,0,0,0,6894.896945904092,-1668.051121927153,0,0,0
10561.999999999989,0,0,0,6782.681533959596,-1409.5648154247851,0,0,0
13225.000000000007,0,0,0,6682.77040180921,-1183.1638291896693,0,0,0
16558.000000000015,0,0,0,6593.867662620236,-985.460124942227,0,0,0
20732.000000000015,0,0,0,6516.754224930339,-805.930103577582,0,0,0
25957.000000000007,0,0,0,6453.606320838538,-637.3307270427723,0,0,0
32500.000000000004,0,0,0,6394.368186857902,-475.1836391328999,0,0,0
40692.00000000002,0,0,0,6375.311764025585,-325.1905156627205,0,0,0
50948.00000000003,0,0,0,6363.517992346896,-177.7491521142395,0,0,0
63790.000000000044,0,0,0,6378.018302055059,-32.28232721928353,0,0,0
79868.99999999993,0,0,0,6427.378799910269,-108.82395170197432,0,0,0
100000.0,0,0,0,6516.485882736796,-234.3933234800822,0,0,0
79868.99999999993,0,0,0,6428.771151762331,-103.23583810110664,0,0,0
63790.000000000044,0,0,0,6382.118249537605,-32.30307909548476,0,0,0
50948.00000000003,0,0,0,6364.055318686123,-179.98739039962172,0,0,0
40692.00000000002,0,0,0,6376.1240767442505,-330.81089456406505,0,0,0
32500.000000000004,0,0,0,6388.756049940641,-494.9530728734339,0,0,0
25957.000000000007,0,0,0,6457.956562980805,-649.1434977361764,0,0,0
20732.000000000015,0,0,0,6522.250826957875,-821.6389658769391,0,0,0
16558.000000000015,0,0,0,6600.800453023334,-1006.527589968081,0,0,0
13225.000000000007,0,0,0,6691.349154590226,-1212.4052875852487,0,0,0
10561.999999999989,0,0,0,6792.2253667475825,-1448.6889132283281,0,0,0
8436.000000000004,0,0,0,6905.895082209606,-1720.5528511246544,0,0,0
6737.700000000001,0,0,0,7031.734289212627,-2037.585307640245,0,0,0
5381.300000000001,0,0,0,7169.456474381955,-2416.968487991242,0,0,0
4298.000000000002,0,0,0,7321.7518118646985,-2872.3118572773387,0,0,0
3432.7000000000003,0,0,0,7484.581673808146,-3431.450547231486,0,0,0
2741.6999999999985,0,0,0,7675.748144504967,-4096.746365364661,0,0,0
2189.7,0,0,0,7892.141668857409,-4908.604148705067,0,0,0
1748.8999999999996,0,0,0,8138.2013267236325,-5901.9054690594385,0,0,0
1396.8000000000002,0,0,0,8428.10992712229,-7112.22518318583,0,0,0
1115.5999999999997,0,0,0,8767.796400511284,-8595.058480265352,0,0,0
891.0400000000004,0,0,0,9166.28585305257,-10408.091307253617,0,0,0
711.6599999999997,0,0,0,9650.367546240592,-12617.59213251349,0,0,0
568.3900000000002,0,0,0,10238.048254085232,-15322.322015511303,0,0,0
453.9699999999999,0,0,0,10987.905061983238,-18609.171484750284,0,0,0
362.57999999999987,0,0,0,11865.56061268278,-22638.950314596103,0,0,0
289.5899999999999,0,0,0,12948.717389454,-27567.36416431668,0,0,0
231.29,0,0,0,14301.528238594336,-33561.92208501606,0,0,0
184.72999999999996,0,0,0,15990.333950840512,-40844.485418971766,0,0,0
147.53999999999994,0,0,0,18122.658692719906,-49710.59407115533,0,0,0
117.84000000000002,0,0,0,20830.680241917733,-60599.745549457366,0,0,0
94.11499999999998,0,0,0,24554.705703779062,-73857.20446781613,0,0,0
75.168,0,0,0,28960.51168905201,-89985.54730459931,0,0,0
59.72,0,0,0,34346.91807775254,-110410.98730905433,0,0,0
47.291999999999994,0,0,0,42215.63905174825,-136040.41097943106,0,0,0
37.327000000000005,0,0,0,52788.30617566223,-166208.50408780095,0,0,0
29.363999999999997,0,0,0,66977.12102087772,-205037.93614781313,0,0,0
23.024,0,0,0,86728.02442306715,-251591.14487531525,0,0,0
17.994000000000003,0,0,0,114280.78574740422,-308609.99677417433,0,0,0
14.016000000000002,0,0,0,151464.16412408574,-377540.3436537505,0,0,0
10.882999999999997,0,0,0,203567.44169340978,-459376.04234700813,0,0,0
8.423,0,0,0,275109.9494181425,-553477.5534121931,0,0,0
6.4987,0,0,0,375684.2592405114,-662400.2172092851,0,0,0
4.9988,0,0,0,501953.72565373895,-777091.3520316199,0,0,0
3.8337000000000003,0,0,0,663433.475953133,-897889.1819065112,0,0,0
2.9318,0,0,0,866782.7009886422,-1014155.0962583751,0,0,0
2.2359,0,0,0,1110985.3011547064,-1116817.6890693423,0,0,0
1.7008,0,0,0,2739657.2163905394,-2342370.2923917132,0,0,0
1.2907,0,0,0,3070870.037135951,-2343613.921920725,0,0,0
0.97721,0,0,0,2051996.0105529146,-1340232.510676757,0,0,0
0.73838,0,0,0,2411533.799320409,-1357166.376954304,0,0,0
0.55689,0,0,0,2791507.239418257,-1350669.6643796593,0,0,0
0.41935,0,0,0,3189877.878621734,-1319986.348217172,0,0,0
0.31534,0,0,0,3555674.3814233765,-1262623.4328925982,0,0,0
0.23687000000000002,0,0,0,3989952.5262984037,-1239676.7513690758,0,0,0
0.17777999999999997,0,0,0,4332527.350599126,-1189310.1346202828,0,0,0
0.13335,0,0,0,4758880.477537432,-1141627.7022361974,0,0,0
0.1,0,0,0,5133002.981714993,-1087308.6037114728,0,0,0
