Z60W Data File: Version 1.1







0,2,0,1,0.1,100000
78
1115.5999999999997,0,0,0,11632094.088004377,-6122533.146322169,0,0,0
1396.8000000000002,0,0,0,10891065.783351352,-6326034.389940777,0,0,0
1748.8999999999996,0,0,0,9798405.786998626,-6812605.964923544,0,0,0
2189.7,0,0,0,8710140.721751662,-6920915.662488846,0,0,0
2741.6999999999985,0,0,0,7410896.8575476175,-6932568.915401481,0,0,0
3432.7000000000003,0,0,0,5972547.423777035,-6727042.0625066925,0,0,0
4298.000000000002,0,0,0,4857158.514956433,-6141409.5418386,0,0,0
5381.300000000001,0,0,0,3793030.5456025237,-5535435.42732875,0,0,0
6737.700000000001,0,0,0,2972652.4366130205,-4839544.777259394,0,0,0
8436.000000000004,0,0,0,2307354.784288276,-4166007.1038612025,0,0,0
10561.999999999989,0,0,0,1846239.7832364065,-3519553.0998686734,0,0,0
13225.000000000007,0,0,0,1504546.1020060724,-2964339.9799851454,0,0,0
16558.000000000015,0,0,0,1255325.3915446936,-2481891.990265322,0,0,0
20732.000000000015,0,0,0,1062427.8993209563,-2079745.2052461763,0,0,0
25957.000000000007,0,0,0,935534.9023584173,-1745496.6646972508,0,0,0
32500.000000000004,0,0,0,926010.333804736,-1484808.0251961334,0,0,0
40692.00000000002,0,0,0,1161632.7905289696,-1484150.7167292275,0,0,0
50948.00000000003,0,0,0,767967.8143308826,-1080236.3612431525,0,0,0
63790.000000000044,0,0,0,789956.5678231464,-1033968.1140891507,0,0,0
79868.99999999993,0,0,0,1013859.6298373095,-553692.7767148077,0,0,0
100000.0,0,0,0,857192.7008282184,-809191.0242006052,0,0,0
79868.99999999993,0,0,0,611321.1446579696,-619484.2750175905,0,0,0
63790.000000000044,0,0,0,690298.6538495603,-973862.1352601635,0,0,0
50948.00000000003,0,0,0,760955.1816206204,-1124771.6264045464,0,0,0
40692.00000000002,0,0,0,695021.7339843248,-1502098.7981119691,0,0,0
32500.000000000004,0,0,0,898542.7362207164,-1359611.3566696139,0,0,0
25957.000000000007,0,0,0,936348.0302605885,-1743358.1319473966,0,0,0
20732.000000000015,0,0,0,1065647.8112298814,-2077984.8008156756,0,0,0
16558.000000000015,0,0,0,1253935.528411376,-2482370.419697206,0,0,0
13225.000000000007,0,0,0,1503219.8327459386,-2965573.329803071,0,0,0
10561.999999999989,0,0,0,1850836.1396702065,-3522335.3877918394,0,0,0
8436.000000000004,0,0,0,2321048.6213588356,-4144530.5327972006,0,0,0
6737.700000000001,0,0,0,2946298.3296314976,-4838197.2099957485,0,0,0
5381.300000000001,0,0,0,3783857.1764977756,-5530324.1928359205,0,0,0
4298.000000000002,0,0,0,4822507.703250461,-6123914.31129551,0,0,0
3432.7000000000003,0,0,0,6029218.360341829,-6665648.683610395,0,0,0
2741.6999999999985,0,0,0,7392716.8301679455,-6944651.673694773,0,0,0
2189.7,0,0,0,8648009.975244801,-6896205.077291888,0,0,0
1748.8999999999996,0,0,0,9942316.516026726,-6620677.25350981,0,0,0
1396.8000000000002,0,0,0,10955168.941584725,-6353044.1098214835,0,0,0
1115.5999999999997,0,0,0,11615296.421357239,-6074911.77252853,0,0,0
891.0400000000004,0,0,0,12199578.279534768,-6085144.106880585,0,0,0
711.6599999999997,0,0,0,12775859.24855153,-5773891.275491801,0,0,0
568.3900000000002,0,0,0,13027873.177268311,-6047337.387397273,0,0,0
453.9699999999999,0,0,0,13186784.873297386,-6973205.411098631,0,0,0
362.57999999999987,0,0,0,13605628.456023019,-6998347.970532522,0,0,0
289.5899999999999,0,0,0,13473706.337946353,-8076627.917564624,0,0,0
231.29,0,0,0,13935999.152005384,-9881851.22511492,0,0,0
184.72999999999996,0,0,0,13870076.199085109,-10813119.588332165,0,0,0
147.53999999999994,0,0,0,13301141.399317602,-13943189.64496142,0,0,0
117.84000000000002,0,0,0,14456315.831953323,-17106739.65333008,0,0,0
94.11499999999998,0,0,0,14450007.45165376,-20191001.105620068,0,0,0
75.168,0,0,0,12641269.68228261,-24852766.240799084,0,0,0
59.72,0,0,0,10628823.297008183,-29701485.338632077,0,0,0
47.291999999999994,0,0,0,8262584.654073147,-37208640.39217605,0,0,0
37.327000000000005,0,0,0,25426237.12763575,-52573279.01633336,0,0,0
29.363999999999997,0,0,0,20724906.86027417,-60879013.91804043,0,0,0
23.024,0,0,0,19258201.998766474,-82431265.04412453,0,0,0
17.994000000000003,0,0,0,24682332.82710827,-105316339.4075765,0,0,0
14.016000000000002,0,0,0,25035427.833490353,-136676003.2090275,0,0,0
10.882999999999997,0,0,0,24412900.267118018,-175934290.8603884,0,0,0
8.423,0,0,0,40448820.93827135,-221476663.52169853,0,0,0
6.4987,0,0,0,66095758.518507265,-276797989.70704824,0,0,0
4.9988,0,0,0,79997875.34002225,-357304019.62625927,0,0,0
3.8337000000000003,0,0,0,113634553.96360911,-427670770.857083,0,0,0
2.9318,0,0,0,186004859.94560778,-570093238.8448532,0,0,0
2.2359,0,0,0,271362492.52685905,-694218146.2261055,0,0,0
1.7008,0,0,0,379279385.7755346,-838839381.2439501,0,0,0
1.2907,0,0,0,545880206.5534573,-987230677.2447637,0,0,0
0.97721,0,0,0,773873799.8203956,-1158621694.925286,0,0,0
0.73838,0,0,0,1025877610.8909057,-1270022790.1391249,0,0,0
0.55689,0,0,0,1315729969.1533551,-1367245734.4134269,0,0,0
0.41935,0,0,0,1584123533.5184355,-1404968110.1551971,0,0,0
0.31534,0,0,0,1819590431.1749873,-1444259073.9809887,0,0,0
0.23687000000000002,0,0,0,2053221839.6990292,-1463467812.0761433,0,0,0
0.17777999999999997,0,0,0,2333087513.5551076,-1582590058.7622957,0,0,0
0.13335,0,0,0,2581731334.469965,-1567249615.2865798,0,0,0
0.1,0,0,0,2821905857.040504,-1632513198.721682,0,0,0
