Z60W Data File: Version 1.1







0,2,0,1,0.1,100000
78
1115.5999999999997,0,0,0,26418.62345797453,-18021.563045023533,0,0,0
1396.8000000000002,0,0,0,23650.58672949809,-17481.357136975636,0,0,0
1748.8999999999996,0,0,0,20957.294029151228,-16604.591864171256,0,0,0
2189.7,0,0,0,18493.619440840663,-15479.526122506471,0,0,0
2741.6999999999985,0,0,0,16272.84257299503,-14150.753322509741,0,0,0
3432.7000000000003,0,0,0,14357.510477417074,-12706.920236267279,0,0,0
4298.000000000002,0,0,0,12782.464891167492,-11225.717585351524,0,0,0
5381.300000000001,0,0,0,11476.616856645192,-9805.421486390445,0,0,0
6737.700000000001,0,0,0,10431.469323346051,-8471.38074673133,0,0,0
8436.000000000004,0,0,0,9603.708086984578,-7263.227380440947,0,0,0
10561.999999999989,0,0,0,8960.71598499427,-6188.51105163982,0,0,0
13225.000000000007,0,0,0,8452.417368246553,-5238.678676246904,0,0,0
16558.000000000015,0,0,0,8049.351855430129,-4419.681789165769,0,0,0
20732.000000000015,0,0,0,7729.346610655528,-3711.5793757304846,0,0,0
25957.000000000007,0,0,0,7476.046879224104,-3098.208808270279,0,0,0
32500.000000000004,0,0,0,7269.726183032359,-2567.2076880793607,0,0,0
40692.00000000002,0,0,0,7113.7712589075845,-2107.195046961813,0,0,0
50948.00000000003,0,0,0,6995.000916200341,-1694.8536639947383,0,0,0
63790.000000000044,0,0,0,6916.979168778161,-1333.2522899620262,0,0,0
79868.99999999993,0,0,0,6880.743310082424,-1013.6056929378282,0,0,0
100000.0,0,0,0,6892.722679597251,-729.3198901481339,0,0,0
79868.99999999993,0,0,0,6887.036469568616,-1024.3595593500645,0,0,0
63790.000000000044,0,0,0,6928.643584044604,-1364.3698088412616,0,0,0
50948.00000000003,0,0,0,7022.058655738976,-1748.1925509969767,0,0,0
40692.00000000002,0,0,0,7158.324209002603,-2191.2519158707537,0,0,0
32500.000000000004,0,0,0,7334.046446905949,-2691.1394528389314,0,0,0
25957.000000000007,0,0,0,7564.323780469308,-3279.6469069438767,0,0,0
20732.000000000015,0,0,0,7855.313823122005,-3962.84337695402,0,0,0
16558.000000000015,0,0,0,8230.710227731279,-4761.584461827775,0,0,0
13225.000000000007,0,0,0,8707.159506264372,-5689.127730370445,0,0,0
10561.999999999989,0,0,0,9313.840334519013,-6769.385069789337,0,0,0
8436.000000000004,0,0,0,10096.662790931836,-8008.25633244919,0,0,0
6737.700000000001,0,0,0,11103.619687440321,-9396.581603790162,0,0,0
5381.300000000001,0,0,0,12380.456605598458,-10930.211307970836,0,0,0
4298.000000000002,0,0,0,13983.544595242265,-12564.349627134341,0,0,0
3432.7000000000003,0,0,0,15919.365433940186,-14268.590966898953,0,0,0
2741.6999999999985,0,0,0,18265.90746003907,-15923.141921784438,0,0,0
2189.7,0,0,0,20981.77585391523,-17468.95205832507,0,0,0
1748.8999999999996,0,0,0,24022.117382532575,-18828.976617432672,0,0,0
1396.8000000000002,0,0,0,27308.51144239768,-19935.619473706727,0,0,0
1115.5999999999997,0,0,0,30769.113701685477,-20769.659867526745,0,0,0
891.0400000000004,0,0,0,34277.93757300471,-21361.046714550102,0,0,0
711.6599999999997,0,0,0,37799.40142566619,-21709.291832331714,0,0,0
568.3900000000002,0,0,0,41285.14599303575,-21887.044211901342,0,0,0
453.9699999999999,0,0,0,44754.79683950445,-21896.098644614354,0,0,0
362.57999999999987,0,0,0,48038.299387615654,-21861.94485734984,0,0,0
289.5899999999999,0,0,0,51308.318196342225,-21831.950986178443,0,0,0
231.29,0,0,0,54576.76320291341,-21784.963031713338,0,0,0
184.72999999999996,0,0,0,57772.5623852268,-21738.297183659,0,0,0
147.53999999999994,0,0,0,60928.41570632337,-21743.57430408919,0,0,0
117.84000000000002,0,0,0,64469.12490872084,-21371.06676101475,0,0,0
94.11499999999998,0,0,0,67619.84074978309,-21372.365942355882,0,0,0
75.168,0,0,0,70923.76344879175,-21264.656763273448,0,0,0
59.72,0,0,0,74299.8868046894,-21319.184431172325,0,0,0
47.291999999999994,0,0,0,77850.1144862633,-21020.150296220487,0,0,0
37.327000000000005,0,0,0,81467.96976958522,-20312.2461983393,0,0,0
29.363999999999997,0,0,0,84931.81777775651,-19701.758753115486,0,0,0
23.024,0,0,0,88473.85662134354,-18692.75323610588,0,0,0
17.994000000000003,0,0,0,91795.60652686076,-17361.553829244618,0,0,0
14.016000000000002,0,0,0,94903.96558493325,-15847.423773402563,0,0,0
10.882999999999997,0,0,0,97703.6224709136,-13974.883185958615,0,0,0
8.423,0,0,0,99991.62666632827,-11923.279608464645,0,0,0
6.4987,0,0,0,101884.1991397255,-9433.576503996588,0,0,0
4.9988,0,0,0,102941.01490326932,-7306.671655746223,0,0,0
3.8337000000000003,0,0,0,103626.20270841873,-5267.609726784244,0,0,0
2.9318,0,0,0,103514.25120956698,-3397.748743309275,0,0,0
2.2359,0,0,0,102741.40531897714,-1954.7974528469954,0,0,0
1.7008,0,0,0,101840.56225430362,-1386.4990902658274,0,0,0
1.2907,0,0,0,100567.03409920605,-1614.94659017813,0,0,0
0.97721,0,0,0,99363.15882344628,-2706.0429831378374,0,0,0
0.73838,0,0,0,98443.17170904054,-4797.451809487954,0,0,0
0.55689,0,0,0,97986.41383001575,-7969.868551795522,0,0,0
0.41935,0,0,0,98269.7615665445,-12100.830783648333,0,0,0
0.31534,0,0,0,99572.54376648617,-17449.831743349194,0,0,0
0.23687000000000002,0,0,0,102031.06902110719,-23931.17118759672,0,0,0
0.17777999999999997,0,0,0,105939.9133844795,-31521.66956379344,0,0,0
0.13335,0,0,0,112211.75624582461,-40332.361203227905,0,0,0
0.1,0,0,0,120795.98375283141,-49566.674380935496,0,0,0
