Z60W Data File: Version 1.1







0,2,0,1,0.1,100000
78
1115.5999999999997,0,0,0,9860.295946327436,-12334.109001092811,0,0,0
1396.8000000000002,0,0,0,9380.823028185234,-10173.023312362438,0,0,0
1748.8999999999996,0,0,0,8980.996002435253,-8404.26741627383,0,0,0
2189.7,0,0,0,8648.054684955201,-6945.762317127214,0,0,0
2741.6999999999985,0,0,0,8362.512662074485,-5755.995654675559,0,0,0
3432.7000000000003,0,0,0,8117.20866808837,-4779.493224046982,0,0,0
4298.000000000002,0,0,0,7915.834379504977,-3962.2267080831016,0,0,0
5381.300000000001,0,0,0,7731.467613588134,-3297.7503998995753,0,0,0
6737.700000000001,0,0,0,7569.369367054377,-2747.5469322831987,0,0,0
8436.000000000004,0,0,0,7425.69669996872,-2288.699342437458,0,0,0
10561.999999999989,0,0,0,7299.527043862558,-1901.3843761636308,0,0,0
13225.000000000007,0,0,0,7187.204994635029,-1571.006675699784,0,0,0
16558.000000000015,0,0,0,7089.144167992813,-1285.759699715888,0,0,0
20732.000000000015,0,0,0,7004.8221031797475,-1033.1329356885635,0,0,0
25957.000000000007,0,0,0,6935.448104611069,-804.9121618206168,0,0,0
32500.000000000004,0,0,0,6881.458057201733,-589.9490630328559,0,0,0
40692.00000000002,0,0,0,6846.334757132249,-391.16063616231133,0,0,0
50948.00000000003,0,0,0,6838.599236534461,-192.21387065009574,0,0,0
63790.000000000044,0,0,0,6853.299895618273,-1.1961264901965911,0,0,0
79868.99999999993,0,0,0,6908.871123165938,-186.94855838928407,0,0,0
100000.0,0,0,0,7008.063782512941,-359.91847720062344,0,0,0
79868.99999999993,0,0,0,6908.4038272132,-185.72929264389433,0,0,0
63790.000000000044,0,0,0,6857.6,-0.0,0,0,0
50948.00000000003,0,0,0,6838.265704635405,-193.39894727543933,0,0,0
40692.00000000002,0,0,0,6847.700819555085,-390.03964652919694,0,0,0
32500.000000000004,0,0,0,6885.4497942226935,-587.8702078168891,0,0,0
25957.000000000007,0,0,0,6936.8832753760635,-797.7174837045139,0,0,0
20732.000000000015,0,0,0,7006.573822742032,-1024.6465129331762,0,0,0
16558.000000000015,0,0,0,7092.116802313695,-1270.9623410391719,0,0,0
13225.000000000007,0,0,0,7191.51842217913,-1548.293406773471,0,0,0
10561.999999999989,0,0,0,7304.230585705593,-1869.9731524390777,0,0,0
8436.000000000004,0,0,0,7433.594546955317,-2242.918917722213,0,0,0
6737.700000000001,0,0,0,7579.965775474608,-2682.7179003081233,0,0,0
5381.300000000001,0,0,0,7744.137332768185,-3209.310332645638,0,0,0
4298.000000000002,0,0,0,7932.139845042745,-3839.671371183381,0,0,0
3432.7000000000003,0,0,0,8136.871494347734,-4611.122319400266,0,0,0
2741.6999999999985,0,0,0,8386.306382809593,-5525.551036199655,0,0,0
2189.7,0,0,0,8673.849926789257,-6634.058143213551,0,0,0
1748.8999999999996,0,0,0,9010.25396528369,-7980.013751936115,0,0,0
1396.8000000000002,0,0,0,9405.996430419387,-9608.441452750689,0,0,0
1115.5999999999997,0,0,0,9876.442207477403,-11584.283245948316,0,0,0
891.0400000000004,0,0,0,10421.934371950743,-13987.191746263852,0,0,0
711.6599999999997,0,0,0,11088.20797874507,-16893.030895019823,0,0,0
568.3900000000002,0,0,0,11879.734426299452,-20427.825899018124,0,0,0
453.9699999999999,0,0,0,12857.851884142752,-24699.703660680763,0,0,0
362.57999999999987,0,0,0,14015.973126930434,-29920.898688127065,0,0,0
289.5899999999999,0,0,0,15368.399796723856,-36258.45347898967,0,0,0
231.29,0,0,0,17058.9940988,-43957.95518830587,0,0,0
184.72999999999996,0,0,0,19121.60589110007,-53375.21894236545,0,0,0
147.53999999999994,0,0,0,21639.78833267281,-64749.613596662624,0,0,0
117.84000000000002,0,0,0,25215.831988595455,-78491.05159903852,0,0,0
94.11499999999998,0,0,0,29024.508181653633,-95351.38261091508,0,0,0
75.168,0,0,0,33938.61838518031,-115611.46258959404,0,0,0
59.72,0,0,0,40080.389430395146,-140983.4291082036,0,0,0
47.291999999999994,0,0,0,48893.59886298263,-170737.1546858672,0,0,0
37.327000000000005,0,0,0,59084.50886288427,-209778.13139703518,0,0,0
29.363999999999997,0,0,0,73621.61356635328,-254901.07966794993,0,0,0
23.024,0,0,0,92332.91421740144,-311910.5914394732,0,0,0
17.994000000000003,0,0,0,117100.85037503034,-381115.57412607106,0,0,0
14.016000000000002,0,0,0,149930.48127644073,-464470.8555810739,0,0,0
10.882999999999997,0,0,0,193571.2581119615,-565053.548022621,0,0,0
8.423,0,0,0,250327.74881938705,-685535.3049048735,0,0,0
6.4987,0,0,0,326390.6849428631,-826475.2318627151,0,0,0
4.9988,0,0,0,419869.9909591806,-995910.5535598755,0,0,0
3.8337000000000003,0,0,0,538253.0727304895,-1193764.5830297472,0,0,0
2.9318,0,0,0,686510.39575046,-1423283.3577775534,0,0,0
2.2359,0,0,0,869370.7672365988,-1689436.139389248,0,0,0
1.7008,0,0,0,1091992.0439609531,-1993738.1011371529,0,0,0
1.2907,0,0,0,1361492.488527709,-2349642.85875165,0,0,0
0.97721,0,0,0,1687924.367624547,-2768522.634760148,0,0,0
0.73838,0,0,0,2072072.3917124355,-3251249.7848524507,0,0,0
0.55689,0,0,0,2536395.970258175,-3794550.9776596874,0,0,0
0.41935,0,0,0,3089097.860766941,-4433062.671179498,0,0,0
0.31534,0,0,0,3765948.5200422565,-5166298.2864321275,0,0,0
0.23687000000000002,0,0,0,4585573.442290025,-6036893.009269289,0,0,0
0.17777999999999997,0,0,0,5593611.259418987,-7024580.360313429,0,0,0
0.13335,0,0,0,6847678.307993299,-8131879.413163848,0,0,0
0.1,0,0,0,8349708.719052574,-9315710.617391322,0,0,0
